! Sample S-parameter file: series RL load (R=75, L=5nH, Z0=50)
! Generated for testing the npick web interface
# GHz S RI R 50
0.5   0.2174  0.0610
0.6   0.2148  0.0731
0.7   0.2120  0.0851
0.8   0.2088  0.0970
0.9   0.2054  0.1088
1.0   0.2016  0.1204
1.1   0.1975  0.1319
1.2   0.1930  0.1431
1.3   0.1882  0.1542
1.4   0.1831  0.1650
1.5   0.1776  0.1756
1.6   0.1718  0.1859
1.7   0.1656  0.1959
1.8   0.1591  0.2056
1.9   0.1523  0.2150
2.0   0.1452  0.2241
2.1   0.1378  0.2328
2.2   0.1301  0.2411
2.3   0.1222  0.2491
2.4   0.1140  0.2567
2.5   0.1056  0.2639
2.6   0.0970  0.2707
2.7   0.0883  0.2771
2.8   0.0794  0.2831
2.9   0.0703  0.2886
3.0   0.0612  0.2937
3.1   0.0520  0.2983
3.2   0.0427  0.3025
3.3   0.0334  0.3062
3.4   0.0241  0.3094
3.5   0.0148  0.3121
3.6   0.0056  0.3144
3.7  -0.0036  0.3161
3.8  -0.0126  0.3173
3.9  -0.0216  0.3180
4.0  -0.0304  0.3182
4.1  -0.0390  0.3178
4.2  -0.0475  0.3170
4.3  -0.0558  0.3156
4.4  -0.0638  0.3137
4.5  -0.0716  0.3113
